freq/Hz	-Im(Z)/Ohm	Re(Z)/Ohm	
1.0000186E+006	1.5494737E+002	6.4834399E+000
7.4598238E+005	2.4198503E+002	6.6958141E+000
5.5648750E+005	3.3890820E+002	6.9378877E+000
4.1512953E+005	4.6429877E+002	1.0831974E+001
3.0967934E+005	6.4520947E+002	2.8561670E+001
2.3101619E+005	8.6994049E+002	2.9295034E+001
1.7232964E+005	1.1733960E+003	3.6802471E+001
1.2855367E+005	1.5416992E+003	5.4494423E+001
9.5902617E+004	2.0800088E+003	6.9538383E+001
7.1537258E+004	2.6889250E+003	6.7161255E+001
5.3369953E+004	3.6977917E+003	2.1711688E+002
3.9814063E+004	4.9101475E+003	1.0609893E+002
2.9700492E+004	6.6645562E+003	1.2848732E+002
2.2157064E+004	8.9209443E+003	3.3460373E+002
1.6525014E+004	1.1580342E+004	4.3110562E+002
1.2331135E+004	1.5728800E+004	4.9671625E+002
9.2288525E+003	2.0817506E+004	1.5276356E+003
6.9032866E+003	2.7270439E+004	7.3211896E+002
5.1200850E+003	3.8308223E+004	4.6056738E+003
3.8163364E+003	4.5622629E+004	3.4756270E+003
2.8472668E+003	6.4852742E+004	8.2176758E+003
2.1256799E+003	8.6036430E+004	1.2815773E+004
1.5855076E+003	1.1441662E+005	1.9922199E+004
1.1818910E+003	1.4779309E+005	3.3625324E+004
8.8141022E+002	2.0031103E+005	6.1839316E+004
6.5768494E+002	2.4090189E+005	8.9291867E+004
4.9078522E+002	2.9906428E+005	1.3950883E+005
3.6605426E+002	3.4219091E+005	1.7919030E+005
2.7299075E+002	4.4625403E+005	3.1918766E+005
2.0376114E+002	3.8521941E+005	4.1205453E+005
1.5199416E+002	3.7794791E+005	3.9851378E+005
1.1343907E+002	2.6005053E+005	5.6760438E+005
8.4593941E+001	2.2087409E+005	6.4371919E+005
6.3082302E+001	2.2510864E+005	7.8360838E+005
4.7063255E+001	1.9864992E+005	8.5779531E+005
3.5101093E+001	2.5102563E+005	7.9312356E+005
2.6181301E+001	3.0817188E+005	9.1142500E+005
1.9531252E+001	1.6805192E+005	9.1230238E+005
1.4575557E+001	3.0115303E+005	9.4927525E+005
1.0880919E+001	1.0979209E+005	8.4192469E+005
8.1042528E+000	2.0401105E+005	9.0826831E+005
6.0468264E+000	1.0922139E+005	1.1944909E+006
4.5106812E+000	2.4219614E+005	9.1995800E+005
3.3674569E+000	3.2187525E+005	9.9861069E+005
2.5136740E+000	4.2617559E+005	1.0452329E+006
1.8744003E+000	3.4607472E+005	9.7787256E+005
1.3970852E+000	5.5502788E+005	1.0758290E+006
1.0433360E+000	5.7853119E+005	1.3351328E+006
7.7705413E-001	6.8836275E+005	1.2850858E+006
5.7999259E-001	9.7773569E+005	1.2716033E+006
4.3258584E-001	1.0362325E+006	1.5419880E+006
3.2293734E-001	1.3430280E+006	1.5340496E+006
2.4074021E-001	1.5585021E+006	1.9571841E+006
1.7979608E-001	1.6430904E+006	2.0228273E+006
1.3415243E-001	1.9302793E+006	2.1026353E+006
9.9904113E-002	2.8135798E+006	2.4861333E+006
1.0000186E+006	1.6392233E+002	-5.8516202E+000
7.4598238E+005	2.4305945E+002	7.7490354E+000
5.5648750E+005	3.4414130E+002	2.1442593E+001
4.1512953E+005	4.6672296E+002	3.7848667E+001
3.0967934E+005	6.4558752E+002	7.2995422E+001
2.3101619E+005	8.6818463E+002	1.2136861E+002
1.7232964E+005	1.1337855E+003	1.8530251E+002
1.2855367E+005	1.5129268E+003	2.9595370E+002
9.5902617E+004	2.0039128E+003	5.1738287E+002
7.1537258E+004	2.4672844E+003	6.9487671E+002
5.3369953E+004	3.1726016E+003	1.3394443E+003
3.9814063E+004	3.7706482E+003	1.9547538E+003
2.9700492E+004	4.2361553E+003	2.9166995E+003
2.2157064E+004	4.6336616E+003	4.1138042E+003
1.6525014E+004	4.7958022E+003	5.2842217E+003
1.2331135E+004	4.4884160E+003	6.5088799E+003
9.2288525E+003	4.1838003E+003	7.4855264E+003
6.9032866E+003	3.7579841E+003	8.2159365E+003
5.1200850E+003	3.4549890E+003	8.6361621E+003
3.8163364E+003	3.0948850E+003	9.3718428E+003
2.8472668E+003	2.7463423E+003	9.5965957E+003
2.1256799E+003	2.7992197E+003	1.0029638E+004
1.5855076E+003	2.7149558E+003	1.0412192E+004
1.1818910E+003	3.0848347E+003	1.0738354E+004
8.8141022E+002	3.3727307E+003	1.1233721E+004
6.5768494E+002	3.5953132E+003	1.1420628E+004
4.9078522E+002	4.3381743E+003	1.2018107E+004
3.6605426E+002	4.7406255E+003	1.2661720E+004
2.7299075E+002	5.7688262E+003	1.2885719E+004
2.0376114E+002	6.3866470E+003	1.3761002E+004
1.5199416E+002	7.3748232E+003	1.4940587E+004
1.1343907E+002	8.6157998E+003	1.5631531E+004
8.4593941E+001	1.0833108E+004	1.6608113E+004
6.3082302E+001	1.3277754E+004	1.8117779E+004
4.7063255E+001	1.5861253E+004	1.9741023E+004
3.5101093E+001	1.9316756E+004	2.1538801E+004
2.6181301E+001	2.3513449E+004	2.3364178E+004
1.9531252E+001	2.8936252E+004	2.5332955E+004
1.4575557E+001	3.5695172E+004	2.7919320E+004
1.0880919E+001	4.4003504E+004	3.1569848E+004
8.1042528E+000	5.5770840E+004	3.5656691E+004
6.0468264E+000	6.9542641E+004	3.9749730E+004
4.5106812E+000	8.7595336E+004	4.5398059E+004
3.3674569E+000	1.1231176E+005	5.2251637E+004
2.5136740E+000	1.4054075E+005	5.9708090E+004
1.8744003E+000	1.8148663E+005	7.3306414E+004
1.3970852E+000	2.3330923E+005	8.7723422E+004
1.0433360E+000	3.0058909E+005	1.0213921E+005
7.7705413E-001	3.6680244E+005	1.1682711E+005
5.7999259E-001	4.1074222E+005	1.5863808E+005
4.3258584E-001	6.1372544E+005	1.9115956E+005
3.2293734E-001	7.6985769E+005	2.6174647E+005
2.4074021E-001	1.0022556E+006	2.8461594E+005
1.7979608E-001	1.3032159E+006	3.6934938E+005
1.3415243E-001	1.5613833E+006	5.5371481E+005
9.9904113E-002	2.1435593E+006	7.6269163E+005
1.0000186E+006	1.5769730E+002	6.4301734E+000
7.4598238E+005	2.5561510E+002	1.2358085E+000
5.5648750E+005	3.4909799E+002	5.6480227E+000
4.1512953E+005	4.7904193E+002	1.1531215E+001
3.0967934E+005	6.6812329E+002	2.8230732E+001
2.3101619E+005	9.0334637E+002	3.1030184E+001
1.7232964E+005	1.1963047E+003	3.7160820E+001
1.2855367E+005	1.6096899E+003	4.3003876E+001
9.5902617E+004	2.1525481E+003	2.8158770E+000
7.1537258E+004	2.8627041E+003	5.6637127E+001
5.3369953E+004	3.8224128E+003	8.3112938E+001
3.9814063E+004	5.0529531E+003	5.5132870E+001
2.9700492E+004	6.8596138E+003	1.6615724E+002
2.2157064E+004	9.1546338E+003	1.0626704E+002
1.6525014E+004	1.2454420E+004	4.5854877E+002
1.2331135E+004	1.6782404E+004	8.0660266E+002
9.2288525E+003	2.1424627E+004	1.1344475E+003
6.9032866E+003	2.8507430E+004	1.7650583E+003
5.1200850E+003	3.8056965E+004	4.3625728E+003
3.8163364E+003	5.1800543E+004	6.3259341E+003
2.8472668E+003	6.8320461E+004	1.0444588E+004
2.1256799E+003	8.7795797E+004	1.7139205E+004
1.5855076E+003	1.1750586E+005	2.7678961E+004
1.1818910E+003	1.5174680E+005	4.9841617E+004
8.8141022E+002	1.8711784E+005	7.3603313E+004
6.5768494E+002	2.3356711E+005	1.1438303E+005
4.9078522E+002	2.5666970E+005	1.8659172E+005
3.6605426E+002	2.8169281E+005	2.1532794E+005
2.7299075E+002	2.5087448E+005	3.0874697E+005
2.0376114E+002	2.6145233E+005	4.2572053E+005
1.5199416E+002	2.3295030E+005	4.6610031E+005
1.1343907E+002	1.7131536E+005	4.7638822E+005
8.4593941E+001	1.6881648E+005	5.1579469E+005
6.3082302E+001	1.6259800E+005	5.3775988E+005
4.7063255E+001	1.4855264E+005	5.5172356E+005
3.5101093E+001	9.2452789E+004	5.8055869E+005
2.6181301E+001	8.5284734E+004	4.8350322E+005
1.9531252E+001	4.1207809E+004	6.2348681E+005
1.4575557E+001	1.0608778E+005	6.3171806E+005
1.0880919E+001	2.1316102E+005	6.2567869E+005
8.1042528E+000	8.4902477E+004	6.7536913E+005
6.0468264E+000	7.2039289E+004	6.3128338E+005
4.5106812E+000	2.0065863E+005	7.0290300E+005
3.3674569E+000	1.8545591E+005	6.8790763E+005
2.5136740E+000	3.3169025E+005	7.2916413E+005
1.8744003E+000	2.9339216E+005	7.8500769E+005
1.3970852E+000	3.3446006E+005	8.3812825E+005
1.0433360E+000	3.9580934E+005	8.2120856E+005
7.7705413E-001	5.4554900E+005	8.7407981E+005
5.7999259E-001	4.7496375E+005	1.2360049E+006
4.3258584E-001	7.6858594E+005	1.0023104E+006
3.2293734E-001	8.6133581E+005	1.1014698E+006
2.4074021E-001	1.0433436E+006	1.1822233E+006
1.7979608E-001	1.3501585E+006	1.3832096E+006
1.3415243E-001	1.5417709E+006	1.4416548E+006
9.9904113E-002	1.9771690E+006	1.4113991E+006
1.0000186E+006	1.6628442E+002	5.3846741E+000
7.4598238E+005	2.4306807E+002	-3.1040141E-001
5.5648750E+005	3.4385303E+002	6.8028727E+000
4.1512953E+005	4.7230753E+002	1.4031940E+001
3.0967934E+005	6.6685254E+002	2.1031065E+001
2.3101619E+005	8.9342560E+002	2.8109306E+001
1.7232964E+005	1.1979752E+003	3.8179638E+001
1.2855367E+005	1.5991001E+003	5.3436325E+001
9.5902617E+004	2.1405996E+003	1.3132380E-001
7.1537258E+004	2.9019341E+003	1.0301729E+002
5.3369953E+004	3.7427656E+003	2.4258128E+002
3.9814063E+004	4.9847495E+003	1.7428308E+002
2.9700492E+004	6.7517388E+003	4.1637289E+002
2.2157064E+004	8.9057129E+003	6.1904346E+002
1.6525014E+004	1.1913334E+004	1.3201075E+003
1.2331135E+004	1.5933070E+004	1.7790397E+003
9.2288525E+003	2.0558256E+004	3.3270862E+003
6.9032866E+003	2.6520189E+004	6.0692686E+003
5.1200850E+003	3.4920770E+004	8.0461797E+003
3.8163364E+003	4.5655340E+004	1.6857148E+004
2.8472668E+003	5.6364590E+004	2.4979348E+004
2.1256799E+003	6.6797055E+004	4.0498805E+004
1.5855076E+003	7.5747961E+004	5.8104539E+004
1.1818910E+003	7.9452516E+004	7.7977938E+004
8.8141022E+002	7.5277797E+004	1.0221528E+005
6.5768494E+002	7.2269445E+004	1.2279968E+005
4.9078522E+002	6.1221188E+004	1.3440661E+005
3.6605426E+002	5.3815316E+004	1.4087109E+005
2.7299075E+002	4.2289109E+004	1.5030609E+005
2.0376114E+002	3.7870102E+004	1.5654295E+005
1.5199416E+002	2.8821137E+004	1.6195858E+005
1.1343907E+002	2.5787826E+004	1.5862119E+005
8.4593941E+001	2.0464053E+004	1.6143600E+005
6.3082302E+001	2.1205660E+004	1.6890734E+005
4.7063255E+001	2.6110125E+004	1.6294803E+005
3.5101093E+001	2.2255088E+004	1.7657650E+005
2.6181301E+001	2.9757742E+004	1.6768844E+005
1.9531252E+001	2.1899564E+004	1.7749236E+005
1.4575557E+001	3.6780551E+004	1.8179805E+005
1.0880919E+001	3.1574664E+004	1.8133728E+005
8.1042528E+000	4.6659961E+004	1.8599653E+005
6.0468264E+000	5.8321336E+004	1.8276355E+005
4.5106812E+000	5.7456250E+004	2.0137400E+005
3.3674569E+000	7.4136039E+004	2.0568497E+005
2.5136740E+000	1.0061794E+005	2.1471191E+005
1.8744003E+000	1.0487001E+005	2.3297619E+005
1.3970852E+000	1.3791717E+005	2.3941136E+005
1.0433360E+000	1.7427175E+005	2.5073777E+005
7.7705413E-001	2.1542309E+005	2.6314147E+005
5.7999259E-001	2.9849016E+005	2.8012869E+005
4.3258584E-001	3.4361009E+005	3.0616822E+005
3.2293734E-001	4.2526678E+005	3.4682022E+005
2.4074021E-001	5.4004950E+005	3.8165275E+005
1.7979608E-001	6.7728331E+005	4.3718250E+005
1.3415243E-001	8.5617588E+005	4.8584778E+005
9.9904113E-002	1.0661695E+006	5.8343281E+005
1.0000186E+006	1.5454897E+002	2.0925159E+000
7.4598238E+005	2.4545473E+002	1.5872256E+001
5.5648750E+005	3.3952820E+002	2.2518187E+001
4.1512953E+005	4.6066806E+002	4.0662304E+001
3.0967934E+005	6.3261292E+002	8.0767883E+001
2.3101619E+005	8.4412384E+002	1.3093993E+002
1.7232964E+005	1.1166987E+003	1.9653178E+002
1.2855367E+005	1.4473796E+003	3.2771808E+002
9.5902617E+004	1.8808003E+003	5.7462134E+002
7.1537258E+004	2.4198584E+003	8.9161578E+002
5.3369953E+004	2.9154587E+003	1.3647607E+003
3.9814063E+004	3.5249468E+003	2.0205793E+003
2.9700492E+004	3.8831379E+003	2.9224575E+003
2.2157064E+004	4.1029009E+003	4.0008064E+003
1.6525014E+004	4.1012163E+003	5.0331001E+003
1.2331135E+004	3.8728081E+003	6.0492690E+003
9.2288525E+003	3.4911899E+003	6.7732622E+003
6.9032866E+003	3.0641292E+003	7.3937676E+003
5.1200850E+003	2.8028694E+003	7.9518579E+003
3.8163364E+003	2.5976838E+003	8.2082158E+003
2.8472668E+003	2.4174106E+003	8.7420146E+003
2.1256799E+003	2.3718203E+003	8.8878438E+003
1.5855076E+003	2.3826345E+003	9.1825469E+003
1.1818910E+003	2.4914021E+003	9.4058711E+003
8.8141022E+002	2.6730044E+003	9.7412490E+003
6.5768494E+002	2.9885730E+003	1.0288928E+004
4.9078522E+002	3.5437971E+003	1.0600180E+004
3.6605426E+002	4.0278206E+003	1.0714281E+004
2.7299075E+002	4.7939360E+003	1.1451146E+004
2.0376114E+002	5.7663896E+003	1.2119071E+004
1.5199416E+002	6.9398257E+003	1.2316536E+004
1.1343907E+002	8.6015381E+003	1.2791909E+004
8.4593941E+001	1.0262283E+004	1.4186640E+004
6.3082302E+001	1.2505654E+004	1.4964122E+004
4.7063255E+001	1.5297030E+004	1.6349893E+004
3.5101093E+001	1.8915277E+004	1.7652561E+004
2.6181301E+001	2.3674900E+004	1.9458697E+004
1.9531252E+001	2.9553844E+004	2.1047660E+004
1.4575557E+001	3.7374121E+004	2.3361148E+004
1.0880919E+001	4.7178508E+004	2.6840217E+004
8.1042528E+000	5.9690305E+004	2.9608352E+004
6.0468264E+000	7.6110125E+004	3.3718516E+004
4.5106812E+000	9.6848172E+004	4.1401766E+004
3.3674569E+000	1.2281796E+005	4.8824824E+004
2.5136740E+000	1.5801956E+005	5.9804016E+004
1.8744003E+000	1.9882358E+005	6.8408297E+004
1.3970852E+000	2.5385436E+005	8.5139188E+004
1.0433360E+000	3.2676191E+005	9.8150055E+004
7.7705413E-001	4.1701597E+005	1.2631611E+005
5.7999259E-001	6.0199613E+005	-1.6598975E+004
4.3258584E-001	6.9130131E+005	2.0481752E+005
3.2293734E-001	8.8968969E+005	2.6304891E+005
2.4074021E-001	1.1841669E+006	3.1932956E+005
1.7979608E-001	1.4845940E+006	4.3855156E+005
1.3415243E-001	1.9708854E+006	5.1604897E+005
9.9904113E-002	2.5952048E+006	6.8587169E+005
1.0000186E+006	1.6051181E+002	-1.4377025E-002
7.4598238E+005	2.4903862E+002	1.0331506E+001
5.5648750E+005	3.3437460E+002	2.5046938E+001
4.1512953E+005	4.5362515E+002	4.7224106E+001
3.0967934E+005	6.2146960E+002	8.2421684E+001
2.3101619E+005	8.2460376E+002	1.3691139E+002
1.7232964E+005	1.0927493E+003	2.3717789E+002
1.2855367E+005	1.4102772E+003	3.6118182E+002
9.5902617E+004	1.8026211E+003	5.6285730E+002
7.1537258E+004	2.3347952E+003	9.4966840E+002
5.3369953E+004	2.8261218E+003	1.3103555E+003
3.9814063E+004	3.2661230E+003	2.2770823E+003
2.9700492E+004	3.6666003E+003	2.6737678E+003
2.2157064E+004	3.8513523E+003	3.8351570E+003
1.6525014E+004	3.8663955E+003	4.7435786E+003
1.2331135E+004	3.6482224E+003	5.7333994E+003
9.2288525E+003	3.3918274E+003	6.4661235E+003
6.9032866E+003	3.1345825E+003	7.0205459E+003
5.1200850E+003	2.7922996E+003	7.5523125E+003
3.8163364E+003	2.5745930E+003	7.9698262E+003
2.8472668E+003	2.4789102E+003	8.2959658E+003
2.1256799E+003	2.3992683E+003	8.5706621E+003
1.5855076E+003	2.4122830E+003	9.1308105E+003
1.1818910E+003	2.9170239E+003	9.3615654E+003
8.8141022E+002	2.9625186E+003	9.6528428E+003
6.5768494E+002	3.2879185E+003	1.0060449E+004
4.9078522E+002	3.8868931E+003	1.0507768E+004
3.6605426E+002	4.1999492E+003	1.0832794E+004
2.7299075E+002	5.1692695E+003	1.1362648E+004
2.0376114E+002	6.1579609E+003	1.2363728E+004
1.5199416E+002	7.3755806E+003	1.2763104E+004
1.1343907E+002	8.6544473E+003	1.2930324E+004
8.4593941E+001	9.9169365E+003	1.5388984E+004
6.3082302E+001	1.2274682E+004	1.5631719E+004
4.7063255E+001	1.4760704E+004	1.7020018E+004
3.5101093E+001	1.8213475E+004	1.8670447E+004
2.6181301E+001	2.2437959E+004	2.0439777E+004
1.9531252E+001	2.7522598E+004	2.2497617E+004
1.4575557E+001	3.4222395E+004	2.5228311E+004
1.0880919E+001	4.2587508E+004	2.8324783E+004
8.1042528E+000	5.4060852E+004	3.1982855E+004
6.0468264E+000	6.6502586E+004	3.5925957E+004
4.5106812E+000	8.4912758E+004	4.1533121E+004
3.3674569E+000	1.0850934E+005	4.8755145E+004
2.5136740E+000	1.3485847E+005	5.9850031E+004
1.8744003E+000	1.7556764E+005	7.0843461E+004
1.3970852E+000	2.1719203E+005	8.4427172E+004
1.0433360E+000	2.7329538E+005	1.0056900E+005
7.7705413E-001	3.4477306E+005	1.3431917E+005
5.7999259E-001	4.5307272E+005	1.5451828E+005
4.3258584E-001	5.6181738E+005	2.0652820E+005
3.2293734E-001	7.1551569E+005	2.4107252E+005
2.4074021E-001	9.3333181E+005	3.1424297E+005
1.7979608E-001	1.1706486E+006	3.6572894E+005
1.3415243E-001	1.5140186E+006	5.4640113E+005
9.9904113E-002	1.8926155E+006	6.1625231E+005
1.0000186E+006	1.6235193E+002	4.4945064E+000
7.4598238E+005	2.4751135E+002	2.3929427E+000
5.5648750E+005	3.4051385E+002	2.5675039E+000
4.1512953E+005	4.6832083E+002	1.0326463E+001
3.0967934E+005	6.5928027E+002	2.0405045E+001
2.3101619E+005	8.8097302E+002	1.7695297E+001
1.7232964E+005	1.1888032E+003	3.3106083E+001
1.2855367E+005	1.5854814E+003	4.0117241E+001
9.5902617E+004	2.1261599E+003	1.4567126E+001
7.1537258E+004	2.8463833E+003	1.0147471E+002
5.3369953E+004	3.6555596E+003	2.4326775E+002
3.9814063E+004	5.1900117E+003	-1.7937634E+002
2.9700492E+004	6.6940864E+003	6.3214142E+001
2.2157064E+004	8.9782422E+003	8.6579102E+001
1.6525014E+004	1.1849690E+004	2.7884879E+002
1.2331135E+004	1.6159132E+004	4.9540903E+002
9.2288525E+003	2.2082313E+004	1.8771066E+002
6.9032866E+003	2.8928354E+004	-5.4988117E+001
5.1200850E+003	3.6251590E+004	9.2364789E+002
3.8163364E+003	5.1710105E+004	2.4949875E+003
2.8472668E+003	6.9853953E+004	3.5491597E+003
2.1256799E+003	9.0352789E+004	4.3236475E+003
1.5855076E+003	1.2103413E+005	6.8783008E+003
1.1818910E+003	1.6506194E+005	6.8703145E+003
8.8141022E+002	2.2094602E+005	1.3756500E+004
6.5768494E+002	2.8055841E+005	1.9579346E+004
4.9078522E+002	3.3604588E+005	2.0471166E+004
3.6605426E+002	5.1498556E+005	6.3461727E+004
2.7299075E+002	6.0464544E+005	1.4923498E+005
2.0376114E+002	7.3249994E+005	8.7840125E+004
1.5199416E+002	8.4329781E+005	6.2371050E+005
1.1343907E+002	1.1692051E+006	-2.1717452E+005
8.4593941E+001	8.9446644E+005	7.4991213E+005
6.3082302E+001	1.6269674E+006	4.8350086E+004
4.7063255E+001	2.1842433E+006	6.5600150E+005
3.5101093E+001	-7.4114789E+004	1.8189930E+006
2.6181301E+001	2.6228378E+005	9.2987125E+005
1.9531252E+001	8.5024525E+005	1.6632513E+006
1.4575557E+001	1.9842740E+006	5.6662325E+005
1.0880919E+001	-2.2337990E+006	3.0486048E+006
8.1042528E+000	-1.5297671E+006	3.5422468E+006
6.0468264E+000	7.2335681E+005	2.3515233E+006
4.5106812E+000	1.4466824E+006	2.3897615E+006
3.3674569E+000	2.9714622E+005	3.8644605E+006
2.5136740E+000	1.9166014E+005	4.0122365E+006
1.8744003E+000	6.3874931E+005	3.9971900E+006
1.3970852E+000	1.4205270E+006	6.6742245E+006
1.0433360E+000	4.3833705E+006	5.9160325E+006
7.7705413E-001	3.8162068E+006	4.6899180E+006
5.7999259E-001	6.5314710E+006	3.5654130E+006
4.3258584E-001	3.8281710E+006	8.5360620E+006
3.2293734E-001	-2.0574993E+006	7.1439175E+006
2.4074021E-001	1.2479554E+007	7.5507275E+006
1.7979608E-001	4.9717180E+006	1.6334779E+007
1.3415243E-001	9.5470263E+005	1.4038636E+007
9.9904113E-002	-3.9470663E+006	2.4420074E+007
1.0000186E+006	1.5885039E+002	1.1653393E+001
7.4598238E+005	2.4310732E+002	8.1295109E+000
5.5648750E+005	3.3842456E+002	1.8612928E+001
4.1512953E+005	4.6137637E+002	3.5422459E+001
3.0967934E+005	6.3789374E+002	7.1590141E+001
2.3101619E+005	8.4427716E+002	1.0797826E+002
1.7232964E+005	1.1211141E+003	1.5581821E+002
1.2855367E+005	1.4813544E+003	2.6146027E+002
9.5902617E+004	1.9364939E+003	4.7318015E+002
7.1537258E+004	2.4626311E+003	6.8102490E+002
5.3369953E+004	3.1396792E+003	1.1046836E+003
3.9814063E+004	3.9668589E+003	1.5557104E+003
2.9700492E+004	4.6760947E+003	2.5421028E+003
2.2157064E+004	5.3671230E+003	3.7753977E+003
1.6525014E+004	5.8984185E+003	5.2301958E+003
1.2331135E+004	5.9416929E+003	6.7675508E+003
9.2288525E+003	5.8064917E+003	8.0721313E+003
6.9032866E+003	5.3059565E+003	9.3173447E+003
5.1200850E+003	4.9897573E+003	1.0305819E+004
3.8163364E+003	4.4872261E+003	1.1167485E+004
2.8472668E+003	4.1323096E+003	1.2008087E+004
2.1256799E+003	3.7699822E+003	1.2251046E+004
1.5855076E+003	3.6469434E+003	1.2811875E+004
1.1818910E+003	3.7987146E+003	1.3061706E+004
8.8141022E+002	3.8630942E+003	1.4191224E+004
6.5768494E+002	4.2126177E+003	1.4464026E+004
4.9078522E+002	4.5933237E+003	1.4879742E+004
3.6605426E+002	5.2585454E+003	1.5471819E+004
2.7299075E+002	6.2824097E+003	1.5563941E+004
2.0376114E+002	7.7091426E+003	1.6615557E+004
1.5199416E+002	8.9589355E+003	1.7477609E+004
1.1343907E+002	1.0858627E+004	1.8857848E+004
8.4593941E+001	1.3192195E+004	2.0066287E+004
6.3082302E+001	1.5835453E+004	2.1340816E+004
4.7063255E+001	1.9424498E+004	2.3186631E+004
3.5101093E+001	2.3985027E+004	2.4843014E+004
2.6181301E+001	2.9568230E+004	2.7231576E+004
1.9531252E+001	3.6096559E+004	3.0032406E+004
1.4575557E+001	4.6194555E+004	3.3283668E+004
1.0880919E+001	5.6538633E+004	3.6806516E+004
8.1042528E+000	7.0509961E+004	4.2503934E+004
6.0468264E+000	8.8539430E+004	4.5965871E+004
4.5106812E+000	1.0986279E+005	5.4210340E+004
3.3674569E+000	1.4329331E+005	6.4071031E+004
2.5136740E+000	1.8133717E+005	7.0589406E+004
1.8744003E+000	2.3255747E+005	8.5933648E+004
1.3970852E+000	2.9006384E+005	1.0162892E+005
1.0433360E+000	3.6389909E+005	1.1782148E+005
7.7705413E-001	4.9480594E+005	1.6728723E+005
5.7999259E-001	5.5158613E+005	1.9947738E+005
4.3258584E-001	7.7423069E+005	2.5534592E+005
